
**** 04/15/18 21:56:54 ****** PSpice 16.5.0 (April 2011) ****** ID# 0 ********

 ** Profile: "SCHEMATIC1-Half"  [ E:\My_Work\20180114_Plasma_LF\2_LF_Generator_Main\4_Review_Data\full_bridge-pspicefiles\schematic1\


 ****     CIRCUIT DESCRIPTION


******************************************************************************




** Creating circuit file "Half.cir" 
** WARNING: THIS AUTOMATICALLY GENERATED FILE MAY BE OVERWRITTEN BY SUBSEQUENT SIMULATIONS

*Libraries: 
* Profile Libraries :
* Local Libraries :
* From [PSPICE NETLIST] section of C:\Cadence\SPB_16.5\tools\PSpice\PSpice.ini file:
.lib "nom.lib" 

*Analysis directives: 
.TRAN  0 200us 0 
.PROBE V(alias(*)) I(alias(*)) W(alias(*)) D(alias(*)) NOISE(alias(*)) 
.INC "..\SCHEMATIC1.net" 



**** INCLUDING SCHEMATIC1.net ****
* source FULL_BRIDGE
X_M5         N47026 N50725 0 IRFP460
V_V15         N47208 0 DC 220V  
X_M6         N47208 N50721 N47026 IRFP460
V_V12         N50717 0  
+PULSE 0V 15V 20usec 0 0 2usec 20usec
V_V14         N50729 0  
+PULSE 0V 15V 30usec 0 0 2usec 20usec
C_C30         0 N50512  2.2u  TC=0,0 
C_C31         N50512 N47208  2.2u  TC=0,0 
R_R41         N50721 N50717  10 TC=0,0 
R_R42         N50725 N50729  10 TC=0,0 
R_R43         N50725 0  10k TC=0,0 
R_R44         N50721 N47026  10k TC=0,0 
X_TX9    N47026 N50512 N51822 0 SCHEMATIC1_TX9 
R_R45         N51822 0  10k TC=0,0 
V_V17         N53622 0  
+PULSE 0V 15V 20usec 0 0 2usec 20usec
V_V16         N53284 0 DC 220V  
X_M7         N53314 N53656 0 IRFP460
X_TX10    N53314 N53250 N53204 0 SCHEMATIC1_TX10 
R_R48         N53656 N53662  10 TC=0,0 
V_V18         N53662 0  
+PULSE 0V 15V 30usec 0 0 2usec 20usec
R_R47         N53650 N53622  10 TC=0,0 
R_R46         0 N53204  10k TC=0,0 
X_M8         N53284 N53650 N53314 IRFP460
R_R50         N53650 N53314  10k TC=0,0 
R_R49         N53656 0  10k TC=0,0 
R_R51         N53250 0  150k TC=0,0 
R_R52         N53284 N53250  150k TC=0,0 

.subckt SCHEMATIC1_TX9 1 2 3 4  
K_TX9         L1_TX9 L2_TX9 1
L1_TX9         1 2 1000uH
L2_TX9         3 4 1000uH
.ends SCHEMATIC1_TX9

.subckt SCHEMATIC1_TX10 1 2 3 4  
K_TX10         L1_TX10 L2_TX10 1
L1_TX10         1 2 1000uH
L2_TX10         3 4 1000uH
.ends SCHEMATIC1_TX10

**** RESUMING Half.cir ****
.END

**** 04/15/18 21:56:54 ****** PSpice 16.5.0 (April 2011) ****** ID# 0 ********

 ** Profile: "SCHEMATIC1-Half"  [ E:\My_Work\20180114_Plasma_LF\2_LF_Generator_Main\4_Review_Data\full_bridge-pspicefiles\schematic1\


 ****     Diode MODEL PARAMETERS


******************************************************************************




               X_M5.MD         X_M5.MD1        X_M5.MD2        X_M5.MD3        
          IS   10.000000E-18    0             100.000000E-12  100.000000E-12 
           N     .70113        50                                            
          BV  500                                                            
         IBV  250.000000E-06                                                 
          RS    9.080380E-03                    3.000000E-06                 
         CJO    6.161040E-09    5.000000E-09                                 
          VJ    1.30742         1.83303                                      
           M     .9              .9                                          
          FC                   10.000000E-09                                 
          EG    1.00085                                                      
         XTI    1.00002                                                      


               X_M6.MD         X_M6.MD1        X_M6.MD2        X_M6.MD3        
          IS   10.000000E-18    0             100.000000E-12  100.000000E-12 
           N     .70113        50                                            
          BV  500                                                            
         IBV  250.000000E-06                                                 
          RS    9.080380E-03                    3.000000E-06                 
         CJO    6.161040E-09    5.000000E-09                                 
          VJ    1.30742         1.83303                                      
           M     .9              .9                                          
          FC                   10.000000E-09                                 
          EG    1.00085                                                      
         XTI    1.00002                                                      


               X_M7.MD         X_M7.MD1        X_M7.MD2        X_M7.MD3        
          IS   10.000000E-18    0             100.000000E-12  100.000000E-12 
           N     .70113        50                                            
          BV  500                                                            
         IBV  250.000000E-06                                                 
          RS    9.080380E-03                    3.000000E-06                 
         CJO    6.161040E-09    5.000000E-09                                 
          VJ    1.30742         1.83303                                      
           M     .9              .9                                          
          FC                   10.000000E-09                                 
          EG    1.00085                                                      
         XTI    1.00002                                                      


               X_M8.MD         X_M8.MD1        X_M8.MD2        X_M8.MD3        
          IS   10.000000E-18    0             100.000000E-12  100.000000E-12 
           N     .70113        50                                            
          BV  500                                                            
         IBV  250.000000E-06                                                 
          RS    9.080380E-03                    3.000000E-06                 
         CJO    6.161040E-09    5.000000E-09                                 
          VJ    1.30742         1.83303                                      
           M     .9              .9                                          
          FC                   10.000000E-09                                 
          EG    1.00085                                                      
         XTI    1.00002                                                      


**** 04/15/18 21:56:54 ****** PSpice 16.5.0 (April 2011) ****** ID# 0 ********

 ** Profile: "SCHEMATIC1-Half"  [ E:\My_Work\20180114_Plasma_LF\2_LF_Generator_Main\4_Review_Data\full_bridge-pspicefiles\schematic1\


 ****     MOSFET MODEL PARAMETERS


******************************************************************************




               X_M5.MM         X_M6.MM         X_M7.MM         X_M8.MM         
               NMOS            NMOS            NMOS            NMOS            
       LEVEL    1               1               1               1            
           L  100.000000E-06  100.000000E-06  100.000000E-06  100.000000E-06 
           W  100.000000E-06  100.000000E-06  100.000000E-06  100.000000E-06 
         VTO    3.854           3.854           3.854           3.854        
          KP   29.2045         29.2045         29.2045         29.2045       
       GAMMA    0               0               0               0            
         PHI     .6              .6              .6              .6          
      LAMBDA     .010185         .010185         .010185         .010185     
          IS    0               0               0               0            
          JS    0               0               0               0            
          PB     .8              .8              .8              .8          
        PBSW     .8              .8              .8              .8          
          CJ    0               0               0               0            
        CJSW    0               0               0               0            
        CGSO   42.055500E-06   42.055500E-06   42.055500E-06   42.055500E-06 
        CGDO   10.000000E-12   10.000000E-12   10.000000E-12   10.000000E-12 
        CGBO    0               0               0               0            
         TOX    0               0               0               0            
          XJ    0               0               0               0            
       UCRIT   10.000000E+03   10.000000E+03   10.000000E+03   10.000000E+03 
      DIOMOD    1               1               1               1            
         VFB    0               0               0               0            
        LETA    0               0               0               0            
        WETA    0               0               0               0            
          U0    0               0               0               0            
        TEMP    0               0               0               0            
         VDD    5               5               5               5            
       XPART    0               0               0               0            


**** 04/15/18 21:56:54 ****** PSpice 16.5.0 (April 2011) ****** ID# 0 ********

 ** Profile: "SCHEMATIC1-Half"  [ E:\My_Work\20180114_Plasma_LF\2_LF_Generator_Main\4_Review_Data\full_bridge-pspicefiles\schematic1\


 ****     INITIAL TRANSIENT SOLUTION       TEMPERATURE =   27.000 DEG C


******************************************************************************



 NODE   VOLTAGE     NODE   VOLTAGE     NODE   VOLTAGE     NODE   VOLTAGE


(N47026)     .1100 (N47208)  220.0000 (N50512)     .1100 (N50717)    0.0000     

(N50721) 109.9E-06 (N50725) 3.297E-12 (N50729)    0.0000 (N51822)    0.0000     

(N53204)    0.0000 (N53250)   13.0380 (N53284)  220.0000 (N53314)   13.0380     

(N53622)    0.0000 (N53650)     .0130 (N53656) 390.8E-12 (N53662)    0.0000     

(X_M5.4)    0.0000 (X_M5.5)     .1100 (X_M5.6)     .1100 (X_M5.7) 4.277E-12     

(X_M5.8) 3.110E-15 (X_M5.9)     .1100 (X_M6.4)    0.0000 (X_M6.5)  220.0000     

(X_M6.6)  220.0000 (X_M6.7) 109.9E-06 (X_M6.8)     .1100 (X_M6.9)  220.0000     

(X_M7.4)    0.0000 (X_M7.5)   13.0380 (X_M7.6)   13.0380 (X_M7.7) 506.9E-12     

(X_M7.8) 368.6E-15 (X_M7.9)   13.0380 (X_M8.4)    0.0000 (X_M8.5)  219.9900     

(X_M8.6)  219.9900 (X_M8.7)     .0130 (X_M8.8)   13.0380 (X_M8.9)  220.0000     

(X_M5.10)     .1100                   (X_M5.11)     .1100                       

(X_M6.10)  220.0000                   (X_M6.11)  220.0000                       

(X_M7.10)   13.0380                   (X_M7.11)   13.0380                       

(X_M8.10)  219.9900                   (X_M8.11)  219.9900                   




    VOLTAGE SOURCE CURRENTS
    NAME         CURRENT

    V_V15       -1.100E-05
    V_V12        1.099E-05
    V_V14        3.297E-13
    V_V17        1.303E-03
    V_V16       -1.390E-03
    V_V18        3.908E-11
    X_M5.VFI2    1.100E-13
    X_M5.VFI1    0.000E+00
    X_M6.VFI2    2.200E-10
    X_M6.VFI1    0.000E+00
    X_M7.VFI2    1.304E-11
    X_M7.VFI1    0.000E+00
    X_M8.VFI2    2.200E-10
    X_M8.VFI1    0.000E+00

    TOTAL POWER DISSIPATION   3.08E-01  WATTS



          JOB CONCLUDED

**** 04/15/18 21:56:54 ****** PSpice 16.5.0 (April 2011) ****** ID# 0 ********

 ** Profile: "SCHEMATIC1-Half"  [ E:\My_Work\20180114_Plasma_LF\2_LF_Generator_Main\4_Review_Data\full_bridge-pspicefiles\schematic1\


 ****     JOB STATISTICS SUMMARY


******************************************************************************



  Total job time (using Solver 1)   =         .25
